T415C 23806:720 SEGGER J-Link V6.48a Log File (0001ms, 42417ms total)
T415C 23806:720 DLL Compiled: Jul 30 2019 15:16:09 (0001ms, 42417ms total)
T415C 23806:720 Logging started @ 2022-07-04 14:56 (0001ms, 42417ms total)
T415C 23806:727 JLINK_ExecCommand("Device = ATSAM4E16E", ...). Device "ATSAM4E16E" selected.  returns 0x00 (0002ms, 42420ms total)
T415C 23807:050 JLINK_TIF_Select(JLINKARM_TIF_JTAG)  returns 0x00 (0001ms, 42421ms total)
T415C 23807:051 JLINK_ConfigJTAG(IRPre = 0, DRPre = 0) (0000ms, 42421ms total)
T415C 23807:051 JLINK_SetSpeed(6800) (0000ms, 42421ms total)
T415C 23807:051 JLINK_ResetPullsRESET(OFF) (0000ms, 42421ms total)
T415C 23807:051 JLINK_Connect() >0x2F8 JTAG>TotalIRLen = 4, IRPrint = 0x01 >0x30 JTAG> >0x30 JTAG>JTAG chain detection found 1 devices: #0 Id: 0x4BA00477, IRLen: 04, CoreSight JTAG-DPScanning AP map to find all available APs >0x78 JTAG> >0x48 JTAG> >0x40 JTAG> >0x40 JTAG> >0x48 JTAG> >0x40 JTAG>AP[1]: Stopped AP scan as end of AP map has been reachedAP[0]: AHB-AP (IDR: 0x24770011)Iterating through AP map to find AHB-AP to use >0x78 JTAG> >0x48 JTAG> >0x48 JTAG> >0x70 JTAG> >0x40 JTAG> >0x30 JTAG>
 >0x40 JTAG> >0x40 JTAG>AP[0]: Core foundAP[0]: AHB-AP ROM base: 0xE00FF000 >0x40 JTAG> >0x40 JTAG> >0x30 JTAG> >0x40 JTAG> >0x40 JTAG>CPUID register: 0x410FC241. Implementer code: 0x41 (ARM)Found Cortex-M4 r0p1, Little endian. -- Max. mem block: 0x000023B8 -- CPU_ReadMem(4 bytes @ 0xE000EDF0) -- CPU_WriteMem(4 bytes @ 0xE000EDF0) -- CPU_ReadMem(4 bytes @ 0xE0002000)FPUnit: 6 code (BP) slots and 2 literal slots -- CPU_ReadMem(4 bytes @ 0xE000EDFC) -- CPU_WriteMem(4 bytes @ 0xE000EDFC)
 -- CPU_ReadMem(4 bytes @ 0xE0001000) -- CPU_WriteMem(4 bytes @ 0xE0001000) -- CPU_ReadMem(4 bytes @ 0xE000ED88) -- CPU_WriteMem(4 bytes @ 0xE000ED88) -- CPU_ReadMem(4 bytes @ 0xE000ED88) -- CPU_WriteMem(4 bytes @ 0xE000ED88)CoreSight components:ROMTbl[0] @ E00FF000 -- CPU_ReadMem(16 bytes @ 0xE00FF000) -- CPU_ReadMem(16 bytes @ 0xE000EFF0) -- CPU_ReadMem(16 bytes @ 0xE000EFE0)ROMTbl[0][0]: E000E000, CID: B105E00D, PID: 000BB00C SCS-M7 -- CPU_ReadMem(16 bytes @ 0xE0001FF0)
 -- CPU_ReadMem(16 bytes @ 0xE0001FE0)ROMTbl[0][1]: E0001000, CID: B105E00D, PID: 003BB002 DWT -- CPU_ReadMem(16 bytes @ 0xE0002FF0) -- CPU_ReadMem(16 bytes @ 0xE0002FE0)ROMTbl[0][2]: E0002000, CID: B105E00D, PID: 002BB003 FPB -- CPU_ReadMem(16 bytes @ 0xE0000FF0) -- CPU_ReadMem(16 bytes @ 0xE0000FE0)ROMTbl[0][3]: E0000000, CID: B105E00D, PID: 003BB001 ITM -- CPU_ReadMem(16 bytes @ 0xE00FF010) -- CPU_ReadMem(16 bytes @ 0xE0040FF0) -- CPU_ReadMem(16 bytes @ 0xE0040FE0)
ROMTbl[0][4]: E0040000, CID: B105900D, PID: 000BB9A1 TPIU  returns 0x00 (0020ms, 42441ms total)
T415C 23807:071 JLINK_Halt()  returns 0x00 (0003ms, 42444ms total)
T415C 23807:074 JLINK_BeginDownload(Flags = 0x00) (0000ms, 42444ms total)
T415C 23807:074 JLINK_WriteMem(0x400E0A04, 0x0004 Bytes, ...) - Data: 0B 01 00 5A -- CPU_WriteMem(4 bytes @ 0x400E0A04)  returns 0x04 (0000ms, 42444ms total)
T415C 23807:074 JLINK_EndDownload()  returns 0x00 (0000ms, 42444ms total)
T415C 23807:074 JLINK_ReadMemHW(0x400E0A08, 0x0004 Bytes, ...) -- CPU_ReadMem(4 bytes @ 0x400E0A08) - Data: 01 00 00 00  returns 0x00 (0001ms, 42445ms total)
T415C 23807:075 JLINK_SetResetType(JLINKARM_CM3_RESET_TYPE_NORMAL)  returns JLINKARM_CM3_RESET_TYPE_NORMAL (0000ms, 42445ms total)
T415C 23807:075 JLINK_Reset() -- CPU_ReadMem(16 bytes @ 0x20000000) -- CPU_WriteMem(16 bytes @ 0x20000000) -- CPU_ReadMem(4 bytes @ 0xE000EDFC) -- CPU_WriteMem(4 bytes @ 0xE000EDFC) -- CPU_ReadMem(4 bytes @ 0xE0001000) -- CPU_WriteMem(4 bytes @ 0xE000EDFC) -- CPU_WriteMem(16 bytes @ 0x20000000) -- CPU_WriteMem(4 bytes @ 0xE0002000) -- CPU_ReadMem(4 bytes @ 0xE000EDFC) -- CPU_ReadMem(4 bytes @ 0xE0001000) (0021ms, 42466ms total)
T415C 23807:099 JLINK_JTAG_GetDeviceID(DeviceIndex = 0)  returns 0x4BA00477 (0000ms, 42466ms total)
T415C 23807:099 JLINK_ReadMemU32(0x400E0740, 0x0001 Items, ...) -- CPU_ReadMem(4 bytes @ 0x400E0740) - Data: E0 0C CC A3  returns 1 (0000ms, 42466ms total)
T415C 23807:100 JLINK_ReadMemU32(0x400E0744, 0x0001 Items, ...) -- CPU_ReadMem(4 bytes @ 0x400E0744) - Data: 00 02 12 00  returns 1 (0000ms, 42466ms total)
T415C 23807:100 JLINK_BeginDownload(Flags = 0x00) (0000ms, 42466ms total)
T415C 23807:100 JLINK_WriteMem(0x400E0A04, 0x0004 Bytes, ...) - Data: 05 00 00 5A -- CPU_WriteMem(4 bytes @ 0x400E0A04)  returns 0x04 (0001ms, 42467ms total)
T415C 23807:101 JLINK_EndDownload()  returns 0x00 (0000ms, 42467ms total)
T415C 23807:101 JLINK_ReadMemHW(0x400E0A08, 0x0004 Bytes, ...) -- CPU_ReadMem(4 bytes @ 0x400E0A08) - Data: 00 00 00 00  returns 0x00 (0000ms, 42467ms total)
T415C 23807:105 JLINK_ReadMemHW(0x400E0A08, 0x0004 Bytes, ...) -- CPU_ReadMem(4 bytes @ 0x400E0A08) - Data: 00 00 00 00  returns 0x00 (0000ms, 42467ms total)
T3034 23807:108 JLINK_IsHalted()  returns TRUE (0000ms, 42467ms total)
T3034 23807:108 JLINK_GetMOEs(...) -- CPU_ReadMem(4 bytes @ 0xE000ED30)  returns 0x01 (0000ms, 42467ms total)
T3034 23807:108 JLINK_ReadReg(R15 (PC))  returns 0x00400B44 (0000ms, 42467ms total)
T415C 23807:111 JLINK_ReadMemHW(0x400E0A08, 0x0004 Bytes, ...) -- CPU_ReadMem(4 bytes @ 0x400E0A08) - Data: 00 00 00 00  returns 0x00 (0000ms, 42467ms total)
T415C 23807:127 JLINK_ReadMemHW(0x400E0A08, 0x0004 Bytes, ...) -- CPU_ReadMem(4 bytes @ 0x400E0A08) - Data: 00 00 00 00  returns 0x00 (0000ms, 42467ms total)
T415C 23807:192 JLINK_ReadMemHW(0x400E0A08, 0x0004 Bytes, ...) -- CPU_ReadMem(4 bytes @ 0x400E0A08) - Data: 00 00 00 00  returns 0x00 (0000ms, 42467ms total)
T3034 23807:309 JLINK_IsHalted()  returns TRUE (0000ms, 42467ms total)
T415C 23807:449 JLINK_ReadMemHW(0x400E0A08, 0x0004 Bytes, ...) -- CPU_ReadMem(4 bytes @ 0x400E0A08) - Data: 00 00 00 00  returns 0x00 (0000ms, 42467ms total)
T3034 23807:512 JLINK_IsHalted()  returns TRUE (0000ms, 42467ms total)
T3034 23807:713 JLINK_IsHalted()  returns TRUE (0000ms, 42467ms total)
T3034 23807:914 JLINK_IsHalted()  returns TRUE (0000ms, 42467ms total)
T3034 23808:114 JLINK_IsHalted()  returns TRUE (0000ms, 42467ms total)
T3034 23808:315 JLINK_IsHalted()  returns TRUE (0000ms, 42467ms total)
T415C 23808:450 JLINK_ReadMemHW(0x400E0A08, 0x0004 Bytes, ...) -- CPU_ReadMem(4 bytes @ 0x400E0A08) - Data: 00 00 00 00  returns 0x00 (0000ms, 42467ms total)
T415C 23808:450 JLINK_ReadMemHW(0x400E0A08, 0x0004 Bytes, ...) -- CPU_ReadMem(4 bytes @ 0x400E0A08) - Data: 00 00 00 00  returns 0x00 (0001ms, 42468ms total)
T415C 23808:452 JLINK_ReadMemHW(0x400E0A08, 0x0004 Bytes, ...) -- CPU_ReadMem(4 bytes @ 0x400E0A08) - Data: 00 00 00 00  returns 0x00 (0000ms, 42468ms total)
T415C 23808:458 JLINK_ReadMemHW(0x400E0A08, 0x0004 Bytes, ...) -- CPU_ReadMem(4 bytes @ 0x400E0A08) - Data: 00 00 00 00  returns 0x00 (0000ms, 42468ms total)
T415C 23808:476 JLINK_ReadMemHW(0x400E0A08, 0x0004 Bytes, ...) -- CPU_ReadMem(4 bytes @ 0x400E0A08) - Data: 00 00 00 00  returns 0x00 (0000ms, 42468ms total)
T3034 23808:517 JLINK_IsHalted()  returns TRUE (0000ms, 42468ms total)
T415C 23808:540 JLINK_ReadMemHW(0x400E0A08, 0x0004 Bytes, ...) -- CPU_ReadMem(4 bytes @ 0x400E0A08) - Data: 00 00 00 00  returns 0x00 (0000ms, 42468ms total)
T3034 23808:717 JLINK_IsHalted()  returns TRUE (0000ms, 42468ms total)
T415C 23808:799 JLINK_ReadMemHW(0x400E0A08, 0x0004 Bytes, ...) -- CPU_ReadMem(4 bytes @ 0x400E0A08) - Data: 00 00 00 00  returns 0x00 (0000ms, 42468ms total)
T3034 23808:918 JLINK_IsHalted()  returns TRUE (0000ms, 42468ms total)
T3034 23809:120 JLINK_IsHalted()  returns TRUE (0000ms, 42468ms total)
T3034 23809:321 JLINK_IsHalted()  returns TRUE (0000ms, 42468ms total)
T3034 23809:522 JLINK_IsHalted()  returns TRUE (0000ms, 42468ms total)
T3034 23809:724 JLINK_IsHalted()  returns TRUE (0000ms, 42468ms total)
T415C 23809:800 JLINK_ReadMemHW(0x400E0A08, 0x0004 Bytes, ...) -- CPU_ReadMem(4 bytes @ 0x400E0A08) - Data: 00 00 00 00  returns 0x00 (0000ms, 42468ms total)
T415C 23809:801 JLINK_ReadMemHW(0x400E0A08, 0x0004 Bytes, ...) -- CPU_ReadMem(4 bytes @ 0x400E0A08) - Data: 00 00 00 00  returns 0x00 (0000ms, 42468ms total)
T415C 23809:802 JLINK_ReadMemHW(0x400E0A08, 0x0004 Bytes, ...) -- CPU_ReadMem(4 bytes @ 0x400E0A08) - Data: 00 00 00 00  returns 0x00 (0000ms, 42468ms total)
T415C 23809:806 JLINK_ReadMemHW(0x400E0A08, 0x0004 Bytes, ...) -- CPU_ReadMem(4 bytes @ 0x400E0A08) - Data: 00 00 00 00  returns 0x00 (0000ms, 42468ms total)
T415C 23809:827 JLINK_ReadMemHW(0x400E0A08, 0x0004 Bytes, ...) -- CPU_ReadMem(4 bytes @ 0x400E0A08) - Data: 00 00 00 00  returns 0x00 (0000ms, 42468ms total)
T415C 23809:892 JLINK_ReadMemHW(0x400E0A08, 0x0004 Bytes, ...) -- CPU_ReadMem(4 bytes @ 0x400E0A08) - Data: 00 00 00 00  returns 0x00 (0000ms, 42468ms total)
T3034 23809:925 JLINK_IsHalted()  returns TRUE (0000ms, 42468ms total)
T3034 23810:126 JLINK_IsHalted()  returns TRUE (0000ms, 42468ms total)
T415C 23810:150 JLINK_ReadMemHW(0x400E0A08, 0x0004 Bytes, ...) -- CPU_ReadMem(4 bytes @ 0x400E0A08) - Data: 00 00 00 00  returns 0x00 (0000ms, 42468ms total)
T3034 23810:326 JLINK_IsHalted()  returns TRUE (0000ms, 42468ms total)
T3034 23810:528 JLINK_IsHalted()  returns TRUE (0000ms, 42468ms total)
T3034 23810:728 JLINK_IsHalted()  returns TRUE (0000ms, 42468ms total)
T3034 23810:928 JLINK_IsHalted()  returns TRUE (0000ms, 42468ms total)
T3034 23811:129 JLINK_IsHalted()  returns TRUE (0000ms, 42468ms total)
T415C 23811:150 JLINK_ReadMemHW(0x400E0A08, 0x0004 Bytes, ...) -- CPU_ReadMem(4 bytes @ 0x400E0A08) - Data: 00 00 00 00  returns 0x00 (0000ms, 42468ms total)
T415C 23811:150 JLINK_ReadMemHW(0x400E0A08, 0x0004 Bytes, ...) -- CPU_ReadMem(4 bytes @ 0x400E0A08) - Data: 00 00 00 00  returns 0x00 (0001ms, 42469ms total)
T415C 23811:152 JLINK_ReadMemHW(0x400E0A08, 0x0004 Bytes, ...) -- CPU_ReadMem(4 bytes @ 0x400E0A08) - Data: 00 00 00 00  returns 0x00 (0000ms, 42469ms total)
T415C 23811:156 JLINK_ReadMemHW(0x400E0A08, 0x0004 Bytes, ...) -- CPU_ReadMem(4 bytes @ 0x400E0A08) - Data: 00 00 00 00  returns 0x00 (0000ms, 42469ms total)
T415C 23811:172 JLINK_ReadMemHW(0x400E0A08, 0x0004 Bytes, ...) -- CPU_ReadMem(4 bytes @ 0x400E0A08) - Data: 00 00 00 00  returns 0x00 (0000ms, 42469ms total)
T415C 23811:237 JLINK_ReadMemHW(0x400E0A08, 0x0004 Bytes, ...) -- CPU_ReadMem(4 bytes @ 0x400E0A08) - Data: 00 00 00 00  returns 0x00 (0000ms, 42469ms total)
T3034 23811:330 JLINK_IsHalted()  returns TRUE (0000ms, 42469ms total)
T415C 23811:495 JLINK_ReadMemHW(0x400E0A08, 0x0004 Bytes, ...) -- CPU_ReadMem(4 bytes @ 0x400E0A08) - Data: 00 00 00 00  returns 0x00 (0000ms, 42469ms total)
T3034 23811:530 JLINK_IsHalted()  returns TRUE (0000ms, 42469ms total)
T3034 23811:731 JLINK_IsHalted()  returns TRUE (0000ms, 42469ms total)
T3034 23811:932 JLINK_IsHalted()  returns TRUE (0000ms, 42469ms total)
T3034 23812:134 JLINK_IsHalted()  returns TRUE (0000ms, 42469ms total)
T3034 23812:334 JLINK_IsHalted()  returns TRUE (0000ms, 42469ms total)
T415C 23812:498 JLINK_ReadMemHW(0x400E0A08, 0x0004 Bytes, ...) -- CPU_ReadMem(4 bytes @ 0x400E0A08) - Data: 01 00 00 00  returns 0x00 (0000ms, 42469ms total)
T3034 23812:534 JLINK_IsHalted()  returns TRUE (0000ms, 42469ms total)
T415C 23812:536 JLINK_ResetPullsRESET(ON) (0000ms, 42469ms total)
T415C 23812:536 JLINK_ResetNoHalt() >0x2F8 JTAG>TotalIRLen = 4, IRPrint = 0x01 >0x30 JTAG> >0x30 JTAG>JTAG chain detection found 1 devices: #0 Id: 0x4BA00477, IRLen: 04, CoreSight JTAG-DPAP map detection skipped. Manually configured AP map found.AP[0]: AHB-AP (IDR: Not set) >0xB0 JTAG> >0x48 JTAG> >0x48 JTAG> >0x70 JTAG> >0x40 JTAG> >0x30 JTAG> >0x40 JTAG> >0x40 JTAG>AP[0]: Core foundAP[0]: AHB-AP ROM base: 0xE00FF000 >0x40 JTAG> >0x40 JTAG> >0x30 JTAG> >0x40 JTAG> >0x40 JTAG>
CPUID register: 0x410FC241. Implementer code: 0x41 (ARM)Found Cortex-M4 r0p1, Little endian. -- Max. mem block: 0x00001F48 -- CPU_ReadMem(4 bytes @ 0xE000EDF0) -- CPU_ReadMem(4 bytes @ 0xE0002000)FPUnit: 6 code (BP) slots and 2 literal slots -- CPU_ReadMem(4 bytes @ 0xE000EDFC) -- CPU_ReadMem(4 bytes @ 0xE0001000) -- CPU_ReadMem(4 bytes @ 0xE000ED88) -- CPU_WriteMem(4 bytes @ 0xE000ED88) -- CPU_ReadMem(4 bytes @ 0xE000ED88) -- CPU_WriteMem(4 bytes @ 0xE000ED88)CoreSight components:ROMTbl[0] @ E00FF000
 -- CPU_ReadMem(16 bytes @ 0xE00FF000) -- CPU_ReadMem(16 bytes @ 0xE000EFF0) -- CPU_ReadMem(16 bytes @ 0xE000EFE0)ROMTbl[0][0]: E000E000, CID: B105E00D, PID: 000BB00C SCS-M7 -- CPU_WriteMem(4 bytes @ 0xE0001000) -- CPU_ReadMem(16 bytes @ 0xE0001FF0) -- CPU_ReadMem(16 bytes @ 0xE0001FE0)ROMTbl[0][1]: E0001000, CID: B105E00D, PID: 003BB002 DWT -- CPU_ReadMem(16 bytes @ 0xE0002FF0) -- CPU_ReadMem(16 bytes @ 0xE0002FE0)ROMTbl[0][2]: E0002000, CID: B105E00D, PID: 002BB003 FPB
 -- CPU_ReadMem(16 bytes @ 0xE0000FF0) -- CPU_ReadMem(16 bytes @ 0xE0000FE0)ROMTbl[0][3]: E0000000, CID: B105E00D, PID: 003BB001 ITM -- CPU_ReadMem(16 bytes @ 0xE00FF010) -- CPU_ReadMem(16 bytes @ 0xE0040FF0) -- CPU_ReadMem(16 bytes @ 0xE0040FE0)ROMTbl[0][4]: E0040000, CID: B105900D, PID: 000BB9A1 TPIU
                JLINK_Reset() -- CPU_ReadMem(16 bytes @ 0x20000000) -- CPU_WriteMem(16 bytes @ 0x20000000) -- CPU_ReadMem(4 bytes @ 0xE000EDFC) -- CPU_WriteMem(4 bytes @ 0xE000EDFC) -- CPU_ReadMem(4 bytes @ 0xE0001000) -- CPU_WriteMem(4 bytes @ 0xE0001004) -- CPU_WriteMem(4 bytes @ 0xE000EDFC) -- CPU_WriteMem(16 bytes @ 0x20000000) -- CPU_WriteMem(4 bytes @ 0xE0002000) -- CPU_ReadMem(4 bytes @ 0xE000EDFC) -- CPU_ReadMem(4 bytes @ 0xE0001000) (0021ms, 0021ms total)
                JLINK_Go() -- CPU_ReadMem(4 bytes @ 0xE0001000) -- CPU_WriteMem(4 bytes @ 0xE0001004) (0002ms, 0023ms total)
               (0043ms, 42512ms total)
T415C 23812:579 JLINK_TIF_Select(JLINKARM_TIF_JTAG)  returns 0x00 (0000ms, 42512ms total)
T415C 23812:579 JLINK_ConfigJTAG(IRPre = 0, DRPre = 0) (0000ms, 42512ms total)
T415C 23812:579 JLINK_SetSpeed(6800) (0000ms, 42512ms total)
T415C 23812:579 JLINK_ResetPullsRESET(OFF) (0000ms, 42512ms total)
T415C 23812:579 JLINK_Connect() >0x2F8 JTAG>TotalIRLen = 4, IRPrint = 0x01 >0x30 JTAG> >0x30 JTAG>JTAG chain detection found 1 devices: #0 Id: 0x4BA00477, IRLen: 04, CoreSight JTAG-DPAP map detection skipped. Manually configured AP map found.AP[0]: AHB-AP (IDR: Not set) >0xB0 JTAG> >0x48 JTAG> >0x48 JTAG> >0x70 JTAG> >0x40 JTAG> >0x30 JTAG> >0x40 JTAG> >0x40 JTAG>AP[0]: Core foundAP[0]: AHB-AP ROM base: 0xE00FF000 >0x40 JTAG> >0x40 JTAG> >0x30 JTAG> >0x40 JTAG> >0x40 JTAG>
CPUID register: 0x410FC241. Implementer code: 0x41 (ARM)Found Cortex-M4 r0p1, Little endian. -- Max. mem block: 0x00001F48 -- CPU_ReadMem(4 bytes @ 0xE000EDF0) -- CPU_ReadMem(4 bytes @ 0xE0002000)FPUnit: 6 code (BP) slots and 2 literal slots -- CPU_ReadMem(4 bytes @ 0xE000EDFC) -- CPU_ReadMem(4 bytes @ 0xE0001000) -- CPU_WriteMem(4 bytes @ 0xE0001000) -- CPU_ReadMem(4 bytes @ 0xE000ED88) -- CPU_WriteMem(4 bytes @ 0xE000ED88) -- CPU_ReadMem(4 bytes @ 0xE000ED88) -- CPU_WriteMem(4 bytes @ 0xE000ED88)
CoreSight components:ROMTbl[0] @ E00FF000 -- CPU_ReadMem(16 bytes @ 0xE00FF000) -- CPU_ReadMem(16 bytes @ 0xE000EFF0) -- CPU_ReadMem(16 bytes @ 0xE000EFE0)ROMTbl[0][0]: E000E000, CID: B105E00D, PID: 000BB00C SCS-M7 -- CPU_ReadMem(16 bytes @ 0xE0001FF0) -- CPU_ReadMem(16 bytes @ 0xE0001FE0)ROMTbl[0][1]: E0001000, CID: B105E00D, PID: 003BB002 DWT -- CPU_ReadMem(16 bytes @ 0xE0002FF0) -- CPU_ReadMem(16 bytes @ 0xE0002FE0)ROMTbl[0][2]: E0002000, CID: B105E00D, PID: 002BB003 FPB
 -- CPU_ReadMem(16 bytes @ 0xE0000FF0) -- CPU_ReadMem(16 bytes @ 0xE0000FE0)ROMTbl[0][3]: E0000000, CID: B105E00D, PID: 003BB001 ITM -- CPU_ReadMem(16 bytes @ 0xE00FF010) -- CPU_ReadMem(16 bytes @ 0xE0040FF0) -- CPU_ReadMem(16 bytes @ 0xE0040FE0)ROMTbl[0][4]: E0040000, CID: B105900D, PID: 000BB9A1 TPIU  returns 0x00 (0018ms, 42530ms total)
T415C 23812:597 JLINK_Halt()  returns 0x00 (0003ms, 42533ms total)
T415C 23812:600 JLINK_BeginDownload(Flags = 0x00) (0000ms, 42533ms total)
T415C 23812:600 JLINK_WriteMem(0x400E0A04, 0x0004 Bytes, ...) - Data: 0B 01 00 5A -- CPU_WriteMem(4 bytes @ 0x400E0A04)  returns 0x04 (0001ms, 42534ms total)
T415C 23812:601 JLINK_EndDownload()  returns 0x00 (0000ms, 42534ms total)
T415C 23812:601 JLINK_ReadMemHW(0x400E0A08, 0x0004 Bytes, ...) -- CPU_ReadMem(4 bytes @ 0x400E0A08) - Data: 01 00 00 00  returns 0x00 (0000ms, 42534ms total)
T415C 23812:601 JLINK_SetResetType(JLINKARM_CM3_RESET_TYPE_NORMAL)  returns JLINKARM_CM3_RESET_TYPE_NORMAL (0000ms, 42534ms total)
T415C 23812:601 JLINK_Reset() -- CPU_ReadMem(16 bytes @ 0x20000000) -- CPU_WriteMem(16 bytes @ 0x20000000) -- CPU_ReadMem(4 bytes @ 0xE000EDFC) -- CPU_WriteMem(4 bytes @ 0xE000EDFC) -- CPU_ReadMem(4 bytes @ 0xE0001000) -- CPU_WriteMem(4 bytes @ 0xE000EDFC) -- CPU_WriteMem(16 bytes @ 0x20000000) -- CPU_WriteMem(4 bytes @ 0xE0002000) -- CPU_ReadMem(4 bytes @ 0xE000EDFC) -- CPU_ReadMem(4 bytes @ 0xE0001000) (0021ms, 42555ms total)
T415C 23812:626 JLINK_JTAG_GetDeviceID(DeviceIndex = 0)  returns 0x4BA00477 (0000ms, 42555ms total)
T415C 23812:626 JLINK_ReadMemU32(0x400E0740, 0x0001 Items, ...) -- CPU_ReadMem(4 bytes @ 0x400E0740) - Data: E0 0C CC A3  returns 1 (0001ms, 42556ms total)
T415C 23812:627 JLINK_ReadMemU32(0x400E0744, 0x0001 Items, ...) -- CPU_ReadMem(4 bytes @ 0x400E0744) - Data: 00 02 12 00  returns 1 (0001ms, 42557ms total)
T2F4C 23812:634 JLINK_IsHalted()  returns TRUE (0000ms, 42557ms total)
T2F4C 23812:634 JLINK_GetMOEs(...) -- CPU_ReadMem(4 bytes @ 0xE000ED30)  returns 0x01 (0000ms, 42557ms total)
T2F4C 23812:634 JLINK_ReadReg(R15 (PC))  returns 0xFFFFFFFE (0000ms, 42557ms total)
T415C 23812:653 JLINK_BeginDownload(Flags = 0x00) (0000ms, 42557ms total)
T415C 23812:653 JLINK_WriteMem(0x00400000, 0x1EF8 Bytes, ...) - Data: 98 39 00 20 45 0B 40 00 41 0B 40 00 41 0B 40 00 ... -- Read from flash cache (7928 bytes @ 0x00400000)  returns 0x1EF8 (0001ms, 42558ms total)
T415C 23812:655 JLINK_WriteMem(0x00401EF8, 0x084C Bytes, ...) - Data: 01 00 00 00 00 09 3D 00 10 00 00 20 00 00 00 00 ... -- Read from flash cache (2124 bytes @ 0x00401EF8)  returns 0x84C (0000ms, 42558ms total)
T415C 23812:666 JLINK_EndDownload()Old firmware which does not support pausing periodic actions during flash download -- CPU_ReadMem(4 bytes @ 0xE000ED90) -- CPU_ReadMem(4 bytes @ 0xE000ED94) -- -------------------------------------- -- Start of determining dirty areas in flash cache -- End of determining dirty areas -- Start of preparing flash programming -- Calculating RAM usage -- RAM usage = 2860 Bytes -- Preserving CPU registers -- Preparing memory -- Preparing target -- Downloading RAMCode
 -- Checking target RAM -- Preparing RAMCode -- End of preparing flash programming -- CPU is running at 90000 kHz. -- Start of comparing flash -- CRC check was estimated as fastest method -- Comparing range 0x400000 - 0x402FFF (3 Sectors, 12 KB), using multi-block CRC calculation -- CRC does not match for sectors 0-2 -- End of comparing flash -- Start of erasing sectors -- End of erasing sectors -- Start of flash programming -- Programming range 0x00400000 - 0x00402FFF (  3 Sectors, 12 KB)
 -- End of flash programming -- 0x400000 - 0x402FFF (  3 Sectors, 12 KB) -- Start of verifying flash -- Checksum calculation was estimated as fastest method -- End of verifying flash -- Start of restoring -- Restoring RAMCode -- Restore target -- Restore memory -- Restoring CPU registers -- End of restoring -- Bank 0 @ 0x00400000: 1 range affected (12288 bytes) -- Total time needed: 0.307s (Prepare: 0.192s, Compare: 0.003s, Erase: 0.000s, Program: 0.055s, Verify: 0.000s, Restore: 0.055s)  returns 0x3000
 (0313ms, 42871ms total)
T415C 23812:980 JLINK_SetResetType(JLINKARM_CM3_RESET_TYPE_NORMAL)  returns JLINKARM_CM3_RESET_TYPE_NORMAL (0000ms, 42871ms total)
T415C 23812:980 JLINK_Reset() -- CPU_ReadMem(16 bytes @ 0x20000000) -- CPU_WriteMem(16 bytes @ 0x20000000) -- CPU_ReadMem(4 bytes @ 0xE000EDFC) -- CPU_WriteMem(4 bytes @ 0xE000EDFC) -- CPU_ReadMem(4 bytes @ 0xE0001000) -- CPU_WriteMem(4 bytes @ 0xE000EDFC) -- CPU_WriteMem(16 bytes @ 0x20000000) -- CPU_WriteMem(4 bytes @ 0xE0002000) -- CPU_ReadMem(4 bytes @ 0xE000EDFC) -- CPU_ReadMem(4 bytes @ 0xE0001000) (0023ms, 42894ms total)
T2F4C 23813:039 JLINK_IsHalted()  returns TRUE (0000ms, 42894ms total)
T1998 23813:168 JLINK_Halt()  returns 0x00 (0000ms, 42894ms total)
T1998 23813:168 JLINK_ReadReg(R15 (PC))  returns 0x00400B44 (0000ms, 42894ms total)
T1998 23813:168 JLINK_ReadReg(R13 (SP))  returns 0x20003998 (0000ms, 42894ms total)
T1998 23813:180 JLINK_ReadMemHW(0x00400B44, 0x0004 Bytes, ...) -- CPU_ReadMem(4 bytes @ 0x00400B44) - Data: 00 B5 83 B0  returns 0x00 (0001ms, 42895ms total)
T1998 23813:181 JLINK_ReadReg(R0)  returns 0x00000000 (0000ms, 42895ms total)
T1998 23813:181 JLINK_ReadReg(R1)  returns 0x00000000 (0000ms, 42895ms total)
T1998 23813:181 JLINK_ReadReg(R2)  returns 0x00000000 (0000ms, 42895ms total)
T1998 23813:181 JLINK_ReadReg(R3)  returns 0x00000000 (0001ms, 42896ms total)
T1998 23813:182 JLINK_ReadReg(R4)  returns 0x00000000 (0000ms, 42896ms total)
T1998 23813:182 JLINK_ReadReg(R5)  returns 0x00000000 (0000ms, 42896ms total)
T1998 23813:182 JLINK_ReadReg(R6)  returns 0x00000000 (0000ms, 42896ms total)
T1998 23813:182 JLINK_ReadReg(R7)  returns 0x00000000 (0000ms, 42896ms total)
T1998 23813:182 JLINK_ReadReg(R8)  returns 0x00000000 (0000ms, 42896ms total)
T1998 23813:182 JLINK_ReadReg(R9)  returns 0x00000000 (0000ms, 42896ms total)
T1998 23813:182 JLINK_ReadReg(R10)  returns 0x00000000 (0000ms, 42896ms total)
T1998 23813:182 JLINK_ReadReg(R11)  returns 0x00000000 (0000ms, 42896ms total)
T1998 23813:182 JLINK_ReadReg(R12)  returns 0x00000000 (0000ms, 42896ms total)
T1998 23813:182 JLINK_ReadReg(R13 (SP))  returns 0x20003998 (0000ms, 42896ms total)
T1998 23813:182 JLINK_ReadReg(R14)  returns 0xFFFFFFFF (0000ms, 42896ms total)
T1998 23813:182 JLINK_ReadReg(R15 (PC))  returns 0x00400B44 (0000ms, 42896ms total)
T1998 23813:182 JLINK_ReadReg(XPSR)  returns 0x01000000 (0000ms, 42896ms total)
T1998 23813:182 JLINK_ReadReg(MSP)  returns 0x20003998 (0000ms, 42896ms total)
T1998 23813:182 JLINK_ReadReg(PSP)  returns 0x00000000 (0000ms, 42896ms total)
T1998 23813:182 JLINK_ReadReg(PRIMASK)  returns 0x00000000 (0000ms, 42896ms total)
T1998 23813:182 JLINK_ReadReg(BASEPRI)  returns 0x00000000 (0000ms, 42896ms total)
T1998 23813:182 JLINK_ReadReg(FAULTMASK)  returns 0x00000000 (0000ms, 42896ms total)
T1998 23813:182 JLINK_ReadReg(CONTROL)  returns 0x00000000 (0000ms, 42896ms total)
T1998 23813:182 JLINK_ReadReg(FPSCR)  returns 0x00000000 (0005ms, 42901ms total)
T1998 23813:187 JLINK_ReadReg(FPS0)  returns 0x00000000 (0000ms, 42901ms total)
T1998 23813:187 JLINK_ReadReg(FPS1)  returns 0x00000000 (0000ms, 42901ms total)
T1998 23813:187 JLINK_ReadReg(FPS2)  returns 0x00000000 (0000ms, 42901ms total)
T1998 23813:187 JLINK_ReadReg(FPS3)  returns 0x00000000 (0000ms, 42901ms total)
T1998 23813:187 JLINK_ReadReg(FPS4)  returns 0x00000000 (0000ms, 42901ms total)
T1998 23813:187 JLINK_ReadReg(FPS5)  returns 0x00000000 (0000ms, 42901ms total)
T1998 23813:187 JLINK_ReadReg(FPS6)  returns 0x00000000 (0000ms, 42901ms total)
T1998 23813:187 JLINK_ReadReg(FPS7)  returns 0x00000000 (0000ms, 42901ms total)
T1998 23813:187 JLINK_ReadReg(FPS8)  returns 0x00000000 (0000ms, 42901ms total)
T1998 23813:187 JLINK_ReadReg(FPS9)  returns 0x00000000 (0000ms, 42901ms total)
T1998 23813:187 JLINK_ReadReg(FPS10)  returns 0x00000000 (0000ms, 42901ms total)
T1998 23813:187 JLINK_ReadReg(FPS11)  returns 0x00000000 (0000ms, 42901ms total)
T1998 23813:187 JLINK_ReadReg(FPS12)  returns 0x00000000 (0000ms, 42901ms total)
T1998 23813:187 JLINK_ReadReg(FPS13)  returns 0x00000000 (0000ms, 42901ms total)
T1998 23813:187 JLINK_ReadReg(FPS14)  returns 0x00000000 (0000ms, 42901ms total)
T1998 23813:187 JLINK_ReadReg(FPS15)  returns 0x00000000 (0001ms, 42902ms total)
T1998 23813:188 JLINK_ReadReg(FPS16)  returns 0x00000000 (0000ms, 42902ms total)
T1998 23813:188 JLINK_ReadReg(FPS17)  returns 0x00000000 (0000ms, 42902ms total)
T1998 23813:188 JLINK_ReadReg(FPS18)  returns 0x00000000 (0000ms, 42902ms total)
T1998 23813:188 JLINK_ReadReg(FPS19)  returns 0x00000000 (0000ms, 42902ms total)
T1998 23813:188 JLINK_ReadReg(FPS20)  returns 0x00000000 (0000ms, 42902ms total)
T1998 23813:188 JLINK_ReadReg(FPS21)  returns 0x00000000 (0000ms, 42902ms total)
T1998 23813:188 JLINK_ReadReg(FPS22)  returns 0x00000000 (0000ms, 42902ms total)
T1998 23813:188 JLINK_ReadReg(FPS23)  returns 0x00000000 (0000ms, 42902ms total)
T1998 23813:188 JLINK_ReadReg(FPS24)  returns 0x00000000 (0000ms, 42902ms total)
T1998 23813:188 JLINK_ReadReg(FPS25)  returns 0x00000000 (0000ms, 42902ms total)
T1998 23813:188 JLINK_ReadReg(FPS26)  returns 0x00000000 (0000ms, 42902ms total)
T1998 23813:188 JLINK_ReadReg(FPS27)  returns 0x00000000 (0000ms, 42902ms total)
T1998 23813:188 JLINK_ReadReg(FPS28)  returns 0x00000000 (0000ms, 42902ms total)
T1998 23813:188 JLINK_ReadReg(FPS29)  returns 0x00000000 (0000ms, 42902ms total)
T1998 23813:188 JLINK_ReadReg(FPS30)  returns 0x00000000 (0000ms, 42902ms total)
T1998 23813:188 JLINK_ReadReg(FPS31)  returns 0x00000000 (0000ms, 42902ms total)
T1998 23813:189 JLINK_ReadMemHW(0x00400B44, 0x0002 Bytes, ...) -- CPU_ReadMem(2 bytes @ 0x00400B44) - Data: 00 B5  returns 0x00 (0001ms, 42903ms total)
T2F4C 23813:239 JLINK_IsHalted()  returns TRUE (0000ms, 42903ms total)
T1998 23813:244 JLINK_ReadReg(R0)  returns 0x00000000 (0000ms, 42903ms total)
T1998 23813:244 JLINK_ReadReg(R1)  returns 0x00000000 (0000ms, 42903ms total)
T1998 23813:244 JLINK_ReadReg(R2)  returns 0x00000000 (0000ms, 42903ms total)
T1998 23813:244 JLINK_ReadReg(R3)  returns 0x00000000 (0000ms, 42903ms total)
T1998 23813:244 JLINK_ReadReg(R4)  returns 0x00000000 (0000ms, 42903ms total)
T1998 23813:244 JLINK_ReadReg(R5)  returns 0x00000000 (0000ms, 42903ms total)
T1998 23813:244 JLINK_ReadReg(R6)  returns 0x00000000 (0000ms, 42903ms total)
T1998 23813:244 JLINK_ReadReg(R7)  returns 0x00000000 (0000ms, 42903ms total)
T1998 23813:244 JLINK_ReadReg(R8)  returns 0x00000000 (0000ms, 42903ms total)
T1998 23813:245 JLINK_ReadReg(R9)  returns 0x00000000 (0000ms, 42903ms total)
T1998 23813:245 JLINK_ReadReg(R10)  returns 0x00000000 (0000ms, 42903ms total)
T1998 23813:245 JLINK_ReadReg(R11)  returns 0x00000000 (0000ms, 42903ms total)
T1998 23813:245 JLINK_ReadReg(R12)  returns 0x00000000 (0000ms, 42903ms total)
T1998 23813:245 JLINK_ReadReg(R13 (SP))  returns 0x20003998 (0000ms, 42903ms total)
T1998 23813:245 JLINK_ReadReg(R14)  returns 0xFFFFFFFF (0000ms, 42903ms total)
T1998 23813:245 JLINK_ReadReg(R15 (PC))  returns 0x00400B44 (0000ms, 42903ms total)
T1998 23813:245 JLINK_ReadReg(XPSR)  returns 0x01000000 (0000ms, 42903ms total)
T1998 23813:245 JLINK_ReadReg(MSP)  returns 0x20003998 (0000ms, 42903ms total)
T1998 23813:245 JLINK_ReadReg(PSP)  returns 0x00000000 (0000ms, 42903ms total)
T1998 23813:245 JLINK_ReadReg(PRIMASK)  returns 0x00000000 (0000ms, 42903ms total)
T1998 23813:245 JLINK_ReadReg(BASEPRI)  returns 0x00000000 (0000ms, 42903ms total)
T1998 23813:245 JLINK_ReadReg(FAULTMASK)  returns 0x00000000 (0000ms, 42903ms total)
T1998 23813:245 JLINK_ReadReg(CONTROL)  returns 0x00000000 (0000ms, 42903ms total)
T1998 23813:245 JLINK_ReadReg(FPSCR)  returns 0x00000000 (0000ms, 42903ms total)
T1998 23813:245 JLINK_ReadReg(FPS0)  returns 0x00000000 (0000ms, 42903ms total)
T1998 23813:245 JLINK_ReadReg(FPS1)  returns 0x00000000 (0000ms, 42903ms total)
T1998 23813:245 JLINK_ReadReg(FPS2)  returns 0x00000000 (0000ms, 42903ms total)
T1998 23813:245 JLINK_ReadReg(FPS3)  returns 0x00000000 (0000ms, 42903ms total)
T1998 23813:245 JLINK_ReadReg(FPS4)  returns 0x00000000 (0000ms, 42903ms total)
T1998 23813:245 JLINK_ReadReg(FPS5)  returns 0x00000000 (0001ms, 42904ms total)
T1998 23813:246 JLINK_ReadReg(FPS6)  returns 0x00000000 (0000ms, 42904ms total)
T1998 23813:246 JLINK_ReadReg(FPS7)  returns 0x00000000 (0000ms, 42904ms total)
T1998 23813:246 JLINK_ReadReg(FPS8)  returns 0x00000000 (0000ms, 42904ms total)
T1998 23813:246 JLINK_ReadReg(FPS9)  returns 0x00000000 (0000ms, 42904ms total)
T1998 23813:246 JLINK_ReadReg(FPS10)  returns 0x00000000 (0000ms, 42904ms total)
T1998 23813:246 JLINK_ReadReg(FPS11)  returns 0x00000000 (0000ms, 42904ms total)
T1998 23813:246 JLINK_ReadReg(FPS12)  returns 0x00000000 (0000ms, 42904ms total)
T1998 23813:246 JLINK_ReadReg(FPS13)  returns 0x00000000 (0000ms, 42904ms total)
T1998 23813:246 JLINK_ReadReg(FPS14)  returns 0x00000000 (0000ms, 42904ms total)
T1998 23813:246 JLINK_ReadReg(FPS15)  returns 0x00000000 (0000ms, 42904ms total)
T1998 23813:246 JLINK_ReadReg(FPS16)  returns 0x00000000 (0000ms, 42904ms total)
T1998 23813:246 JLINK_ReadReg(FPS17)  returns 0x00000000 (0000ms, 42904ms total)
T1998 23813:246 JLINK_ReadReg(FPS18)  returns 0x00000000 (0000ms, 42904ms total)
T1998 23813:246 JLINK_ReadReg(FPS19)  returns 0x00000000 (0000ms, 42904ms total)
T1998 23813:246 JLINK_ReadReg(FPS20)  returns 0x00000000 (0000ms, 42904ms total)
T1998 23813:246 JLINK_ReadReg(FPS21)  returns 0x00000000 (0000ms, 42904ms total)
T1998 23813:246 JLINK_ReadReg(FPS22)  returns 0x00000000 (0000ms, 42904ms total)
T1998 23813:246 JLINK_ReadReg(FPS23)  returns 0x00000000 (0000ms, 42904ms total)
T1998 23813:246 JLINK_ReadReg(FPS24)  returns 0x00000000 (0000ms, 42904ms total)
T1998 23813:246 JLINK_ReadReg(FPS25)  returns 0x00000000 (0000ms, 42904ms total)
T1998 23813:246 JLINK_ReadReg(FPS26)  returns 0x00000000 (0001ms, 42905ms total)
T1998 23813:247 JLINK_ReadReg(FPS27)  returns 0x00000000 (0000ms, 42905ms total)
T1998 23813:247 JLINK_ReadReg(FPS28)  returns 0x00000000 (0000ms, 42905ms total)
T1998 23813:247 JLINK_ReadReg(FPS29)  returns 0x00000000 (0000ms, 42905ms total)
T1998 23813:247 JLINK_ReadReg(FPS30)  returns 0x00000000 (0000ms, 42905ms total)
T1998 23813:247 JLINK_ReadReg(FPS31)  returns 0x00000000 (0000ms, 42905ms total)
T2F4C 23813:441 JLINK_IsHalted()  returns TRUE (0000ms, 42905ms total)
T1998 23813:467 JLINK_ReadMemHW(0x00400B44, 0x0004 Bytes, ...) -- CPU_ReadMem(4 bytes @ 0x00400B44) - Data: 00 B5 83 B0  returns 0x00 (0000ms, 42905ms total)
T1998 23813:514 JLINK_ReadMemHW(0x00400272, 0x0002 Bytes, ...) -- CPU_ReadMem(2 bytes @ 0x00400272) - Data: 05 22  returns 0x00 (0001ms, 42906ms total)
T1998 23813:516 JLINK_ReadMemHW(0x00400284, 0x0002 Bytes, ...) -- CPU_ReadMem(2 bytes @ 0x00400284) - Data: 9B B2  returns 0x00 (0000ms, 42906ms total)
T415C 23813:542 JLINK_GetNumBPUnits(Type = 0xFFFFFF02)  returns 0x06 (0000ms, 42906ms total)
T415C 23813:542 JLINK_SetBPEx(Addr = 0x00400284, Type = 0xFFFFFFF2)  returns 0x00000001 (0000ms, 42906ms total)
T415C 23813:542 JLINK_GetBPInfo(BPHandle = 1)  returns 0x00 (0000ms, 42906ms total)
T1998 23813:561 JLINK_SetResetType(JLINKARM_CM3_RESET_TYPE_NORMAL)  returns JLINKARM_CM3_RESET_TYPE_NORMAL (0000ms, 42906ms total)
T1998 23813:561 JLINK_Reset() -- CPU_ReadMem(16 bytes @ 0x20000000) -- CPU_WriteMem(16 bytes @ 0x20000000) -- CPU_ReadMem(4 bytes @ 0xE000EDFC) -- CPU_WriteMem(4 bytes @ 0xE000EDFC) -- CPU_ReadMem(4 bytes @ 0xE0001000) -- CPU_WriteMem(4 bytes @ 0xE0001004) -- CPU_WriteMem(4 bytes @ 0xE000EDFC) -- CPU_WriteMem(16 bytes @ 0x20000000) -- CPU_WriteMem(4 bytes @ 0xE0002000) -- CPU_ReadMem(4 bytes @ 0xE000EDFC) -- CPU_ReadMem(4 bytes @ 0xE0001000) (0023ms, 42929ms total)
T2F4C 23813:584 JLINK_IsHalted()  returns TRUE (0000ms, 42929ms total)
T2F4C 23813:584 JLINK_GetMOEs(...) -- CPU_ReadMem(4 bytes @ 0xE000ED30)  returns 0x01 (0000ms, 42929ms total)
T2F4C 23813:584 JLINK_ReadReg(R15 (PC))  returns 0x00400B44 (0000ms, 42929ms total)
T1998 23813:594 JLINK_ReadReg(R15 (PC))  returns 0x00400B44 (0000ms, 42929ms total)
T1998 23813:594 JLINK_ReadReg(R13 (SP))  returns 0x20003998 (0000ms, 42929ms total)
T1998 23813:594 JLINK_ReadMemHW(0x00400B44, 0x0004 Bytes, ...) -- CPU_ReadMem(4 bytes @ 0x00400B44) - Data: 00 B5 83 B0  returns 0x00 (0001ms, 42930ms total)
T1998 23813:653 JLINK_ReadMemHW(0x004002C0, 0x0001 Bytes, ...) -- CPU_ReadMem(1 bytes @ 0x004002C0) - Data: 80  returns 0x00 (0001ms, 42931ms total)
T1998 23813:716 JLINK_ReadReg(R15 (PC))  returns 0x00400B44 (0000ms, 42931ms total)
T1998 23813:716 JLINK_SetBPEx(Addr = 0x004002C0, Type = 0xFFFFFFF2)  returns 0x00000002 (0000ms, 42931ms total)
T1998 23813:716 JLINK_GetBPInfo(BPHandle = 2)  returns 0x00 (0000ms, 42931ms total)
T1998 23813:717 JLINK_Go() -- CPU_ReadMem(4 bytes @ 0xE0001000) -- CPU_WriteMem(4 bytes @ 0xE000ED30) -- CPU_WriteMem(4 bytes @ 0xE0002008) -- CPU_WriteMem(4 bytes @ 0xE000200C) -- CPU_WriteMem(4 bytes @ 0xE0002010) -- CPU_WriteMem(4 bytes @ 0xE0002014) -- CPU_WriteMem(4 bytes @ 0xE0002018) -- CPU_WriteMem(4 bytes @ 0xE000201C) -- CPU_WriteMem(4 bytes @ 0xE0001004) (0003ms, 42934ms total)
T2F4C 23813:721 JLINK_IsHalted()  returns FALSE (0000ms, 42935ms total)
T2F4C 23813:741 JLINK_IsHalted()  returns TRUE (0002ms, 42937ms total)
T2F4C 23813:743 JLINK_GetMOEs(...) -- CPU_ReadMem(4 bytes @ 0xE000ED30)  returns 0x01 (0001ms, 42936ms total)
T2F4C 23813:744 JLINK_ReadReg(R15 (PC))  returns 0x004002C0 (0000ms, 42936ms total)
T1998 23813:751 JLINK_ReadReg(R15 (PC))  returns 0x004002C0 (0000ms, 42936ms total)
T1998 23813:751 JLINK_ReadReg(R13 (SP))  returns 0x20003988 (0000ms, 42936ms total)
T1998 23813:752 JLINK_ReadMemHW(0x004002C0, 0x0004 Bytes, ...) -- CPU_ReadMem(4 bytes @ 0x004002C0) - Data: 80 B5 8E B0  returns 0x00 (0000ms, 42936ms total)
T1998 23813:778 JLINK_WriteU32(0xE000EDFC, 0x01000000) -- CPU_WriteMem(4 bytes @ 0xE000EDFC)  returns 0 (0001ms, 42937ms total)
T1998 23813:779 JLINK_ReadMem (0xE0001000, 0x0004 Bytes, ...) -- CPU_ReadMem(4 bytes @ 0xE0001000) - Data: 01 00 00 40  returns 0x00 (0000ms, 42937ms total)
T1998 23813:779 JLINK_WriteU32(0xE0001000, 0x40000001)  returns 0 (0000ms, 42937ms total)
T1998 23813:779 JLINK_WriteU32(0xE0001028, 0x00000100)  returns 0 (0000ms, 42937ms total)
T1998 23813:779 JLINK_ReadMem (0xE0001028, 0x0004 Bytes, ...) -- CPU_WriteMem(4 bytes @ 0xE0001028) -- CPU_ReadMem(4 bytes @ 0xE0001028) - Data: 00 00 00 00  returns 0x00 (0001ms, 42938ms total)
T1998 23813:780 JLINK_WriteU32(0xE0001024, 0x0000001F)  returns 0 (0000ms, 42938ms total)
T1998 23813:780 JLINK_ReadMem (0xE0001024, 0x0004 Bytes, ...) -- CPU_WriteMem(4 bytes @ 0xE0001024) -- CPU_ReadMem(4 bytes @ 0xE0001024) - Data: 0F 00 00 00  returns 0x00 (0001ms, 42939ms total)
T1998 23813:781 JLINK_WriteU32(0xE0001038, 0x00000100)  returns 0 (0000ms, 42939ms total)
T1998 23813:781 JLINK_ReadMem (0xE0001038, 0x0004 Bytes, ...) -- CPU_WriteMem(4 bytes @ 0xE0001038) -- CPU_ReadMem(4 bytes @ 0xE0001038) - Data: 00 03 00 00  returns 0x00 (0001ms, 42940ms total)
T1998 23813:783 JLINK_WriteU32(0xE0001034, 0x0000001F)  returns 0 (0000ms, 42940ms total)
T1998 23813:783 JLINK_ReadMem (0xE0001034, 0x0004 Bytes, ...) -- CPU_WriteMem(4 bytes @ 0xE0001034) -- CPU_ReadMem(4 bytes @ 0xE0001034) - Data: 0F 00 00 00  returns 0x00 (0001ms, 42941ms total)
T1998 23813:784 JLINK_WriteU32(0xE0001048, 0x00000100)  returns 0 (0000ms, 42941ms total)
T1998 23813:784 JLINK_ReadMem (0xE0001048, 0x0004 Bytes, ...) -- CPU_WriteMem(4 bytes @ 0xE0001048) -- CPU_ReadMem(4 bytes @ 0xE0001048) - Data: 00 00 00 00  returns 0x00 (0001ms, 42942ms total)
T1998 23813:785 JLINK_WriteU32(0xE0001044, 0x0000001F)  returns 0 (0000ms, 42942ms total)
T1998 23813:785 JLINK_ReadMem (0xE0001044, 0x0004 Bytes, ...) -- CPU_WriteMem(4 bytes @ 0xE0001044) -- CPU_ReadMem(4 bytes @ 0xE0001044) - Data: 0F 00 00 00  returns 0x00 (0001ms, 42943ms total)
T1998 23813:786 JLINK_WriteU32(0xE0001058, 0x00000100)  returns 0 (0000ms, 42943ms total)
T1998 23813:786 JLINK_ReadMem (0xE0001058, 0x0004 Bytes, ...) -- CPU_WriteMem(4 bytes @ 0xE0001058) -- CPU_ReadMem(4 bytes @ 0xE0001058) - Data: 00 00 00 00  returns 0x00 (0001ms, 42944ms total)
T1998 23813:787 JLINK_WriteU32(0xE0001054, 0x0000001F)  returns 0 (0000ms, 42944ms total)
T1998 23813:787 JLINK_ReadMem (0xE0001054, 0x0004 Bytes, ...) -- CPU_WriteMem(4 bytes @ 0xE0001054) -- CPU_ReadMem(4 bytes @ 0xE0001054) - Data: 0F 00 00 00  returns 0x00 (0001ms, 42945ms total)
T1998 23813:788 JLINK_WriteU32(0xE0001020, 0x00000000)  returns 0 (0000ms, 42945ms total)
T1998 23813:788 JLINK_WriteU32(0xE0001024, 0x00000000)  returns 0 (0000ms, 42945ms total)
T1998 23813:788 JLINK_WriteU32(0xE0001028, 0x00000000)  returns 0 (0000ms, 42945ms total)
T1998 23813:788 JLINK_WriteU32(0xE0001030, 0x00000000)  returns 0 (0000ms, 42945ms total)
T1998 23813:789 JLINK_WriteU32(0xE0001034, 0x00000000)  returns 0 (0000ms, 42945ms total)
T1998 23813:789 JLINK_WriteU32(0xE0001038, 0x00000000)  returns 0 (0000ms, 42945ms total)
T1998 23813:789 JLINK_WriteU32(0xE0001040, 0x00000000)  returns 0 (0000ms, 42945ms total)
T1998 23813:789 JLINK_WriteU32(0xE0001044, 0x00000000)  returns 0 (0000ms, 42945ms total)
T1998 23813:789 JLINK_WriteU32(0xE0001048, 0x00000000)  returns 0 (0000ms, 42945ms total)
T1998 23813:789 JLINK_WriteU32(0xE0001050, 0x00000000)  returns 0 (0000ms, 42945ms total)
T1998 23813:789 JLINK_WriteU32(0xE0001054, 0x00000000)  returns 0 (0000ms, 42945ms total)
T1998 23813:789 JLINK_WriteU32(0xE0001058, 0x00000000)  returns 0 (0000ms, 42945ms total)
T1998 23813:789 JLINK_GetBPInfo(BPHandle = 2)  returns 0x00 (0000ms, 42945ms total)
T1998 23813:789 JLINK_ClrBPEx(BPHandle = 0x00000002)  returns 0x00 (0000ms, 42945ms total)
T1998 23813:789 JLINK_ReadReg(R15 (PC))  returns 0x004002C0 (0000ms, 42945ms total)
T1998 23813:790 JLINK_Go() -- CPU_WriteMem(4 bytes @ 0xE0001000) -- CPU_ReadMem(4 bytes @ 0xE0001000) -- CPU_WriteMem(4 bytes @ 0xE000ED30) -- CPU_WriteMem(4 bytes @ 0xE0001020) -- CPU_WriteMem(4 bytes @ 0xE0001030) -- CPU_WriteMem(4 bytes @ 0xE0001040) -- CPU_WriteMem(4 bytes @ 0xE0001050) -- CPU_WriteMem(4 bytes @ 0xE0001024) -- CPU_WriteMem(4 bytes @ 0xE0001034) -- CPU_WriteMem(4 bytes @ 0xE0001044) -- CPU_WriteMem(4 bytes @ 0xE0001054) -- CPU_WriteMem(4 bytes @ 0xE0001028)
 -- CPU_WriteMem(4 bytes @ 0xE0001038) -- CPU_WriteMem(4 bytes @ 0xE0001048) -- CPU_WriteMem(4 bytes @ 0xE0001058) -- CPU_WriteMem(4 bytes @ 0xE000200C) (0005ms, 42950ms total)
T2F4C 23813:795 JLINK_IsHalted()  returns FALSE (0000ms, 42950ms total)
T2F4C 23813:836 JLINK_IsHalted()  returns TRUE (0002ms, 42952ms total)
T2F4C 23813:838 JLINK_GetMOEs(...) -- CPU_ReadMem(4 bytes @ 0xE000ED30)  returns 0x01 (0001ms, 42951ms total)
T2F4C 23813:839 JLINK_ReadReg(R15 (PC))  returns 0x00400284 (0000ms, 42951ms total)
T1998 23813:846 JLINK_ReadReg(R15 (PC))  returns 0x00400284 (0000ms, 42951ms total)
T1998 23813:846 JLINK_ReadReg(R13 (SP))  returns 0x20003918 (0000ms, 42951ms total)
T1998 23813:847 JLINK_ReadMemHW(0x00400284, 0x0004 Bytes, ...) -- CPU_ReadMem(4 bytes @ 0x00400284) - Data: 9B B2 03 4A  returns 0x00 (0000ms, 42951ms total)
T1998 23813:905 JLINK_ReadReg(R0)  returns 0x00070310 (0000ms, 42951ms total)
T1998 23813:905 JLINK_ReadReg(R1)  returns 0x200008A2 (0000ms, 42951ms total)
T1998 23813:905 JLINK_ReadReg(R2)  returns 0x00000003 (0000ms, 42951ms total)
T1998 23813:905 JLINK_ReadReg(R3)  returns 0x00000000 (0000ms, 42951ms total)
T1998 23813:905 JLINK_ReadReg(R4)  returns 0x400B0000 (0000ms, 42951ms total)
T1998 23813:905 JLINK_ReadReg(R5)  returns 0x00400709 (0000ms, 42951ms total)
T1998 23813:905 JLINK_ReadReg(R6)  returns 0x40090000 (0000ms, 42951ms total)
T1998 23813:905 JLINK_ReadReg(R7)  returns 0x00000800 (0000ms, 42951ms total)
T1998 23813:905 JLINK_ReadReg(R8)  returns 0x20000008 (0000ms, 42951ms total)
T1998 23813:905 JLINK_ReadReg(R9)  returns 0x00000000 (0000ms, 42951ms total)
T1998 23813:905 JLINK_ReadReg(R10)  returns 0x00000000 (0000ms, 42951ms total)
T1998 23813:905 JLINK_ReadReg(R11)  returns 0x00000000 (0000ms, 42951ms total)
T1998 23813:905 JLINK_ReadReg(R12)  returns 0x00000000 (0000ms, 42951ms total)
T1998 23813:906 JLINK_ReadReg(R13 (SP))  returns 0x20003918 (0000ms, 42952ms total)
T1998 23813:906 JLINK_ReadReg(R14)  returns 0x004002AD (0000ms, 42952ms total)
T1998 23813:906 JLINK_ReadReg(R15 (PC))  returns 0x00400284 (0000ms, 42952ms total)
T1998 23813:906 JLINK_ReadReg(XPSR)  returns 0x01000025 (0000ms, 42952ms total)
T1998 23813:906 JLINK_ReadReg(MSP)  returns 0x20003918 (0000ms, 42952ms total)
T1998 23813:906 JLINK_ReadReg(PSP)  returns 0x00000000 (0000ms, 42952ms total)
T1998 23813:906 JLINK_ReadReg(PRIMASK)  returns 0x00000000 (0000ms, 42952ms total)
T1998 23813:906 JLINK_ReadReg(BASEPRI)  returns 0x00000000 (0000ms, 42952ms total)
T1998 23813:906 JLINK_ReadReg(FAULTMASK)  returns 0x00000000 (0000ms, 42952ms total)
T1998 23813:906 JLINK_ReadReg(CONTROL)  returns 0x00000000 (0000ms, 42952ms total)
T1998 23813:906 JLINK_ReadReg(FPSCR)  returns 0x00000000 (0005ms, 42957ms total)
T1998 23813:911 JLINK_ReadReg(FPS0)  returns 0x00000000 (0000ms, 42957ms total)
T1998 23813:911 JLINK_ReadReg(FPS1)  returns 0x00000000 (0000ms, 42957ms total)
T1998 23813:911 JLINK_ReadReg(FPS2)  returns 0x00000000 (0000ms, 42957ms total)
T1998 23813:911 JLINK_ReadReg(FPS3)  returns 0x00000000 (0000ms, 42957ms total)
T1998 23813:911 JLINK_ReadReg(FPS4)  returns 0x00000000 (0000ms, 42957ms total)
T1998 23813:911 JLINK_ReadReg(FPS5)  returns 0x00000000 (0000ms, 42957ms total)
T1998 23813:911 JLINK_ReadReg(FPS6)  returns 0x00000000 (0000ms, 42957ms total)
T1998 23813:911 JLINK_ReadReg(FPS7)  returns 0x00000000 (0000ms, 42957ms total)
T1998 23813:911 JLINK_ReadReg(FPS8)  returns 0x00000000 (0000ms, 42957ms total)
T1998 23813:911 JLINK_ReadReg(FPS9)  returns 0x00000000 (0000ms, 42957ms total)
T1998 23813:911 JLINK_ReadReg(FPS10)  returns 0x00000000 (0000ms, 42957ms total)
T1998 23813:911 JLINK_ReadReg(FPS11)  returns 0x00000000 (0000ms, 42957ms total)
T1998 23813:911 JLINK_ReadReg(FPS12)  returns 0x00000000 (0000ms, 42957ms total)
T1998 23813:911 JLINK_ReadReg(FPS13)  returns 0x00000000 (0000ms, 42957ms total)
T1998 23813:911 JLINK_ReadReg(FPS14)  returns 0x00000000 (0000ms, 42957ms total)
T1998 23813:911 JLINK_ReadReg(FPS15)  returns 0x00000000 (0000ms, 42957ms total)
T1998 23813:911 JLINK_ReadReg(FPS16)  returns 0x00000000 (0000ms, 42957ms total)
T1998 23813:911 JLINK_ReadReg(FPS17)  returns 0x00000000 (0000ms, 42957ms total)
T1998 23813:911 JLINK_ReadReg(FPS18)  returns 0x00000000 (0001ms, 42958ms total)
T1998 23813:912 JLINK_ReadReg(FPS19)  returns 0x00000000 (0000ms, 42958ms total)
T1998 23813:912 JLINK_ReadReg(FPS20)  returns 0x00000000 (0000ms, 42958ms total)
T1998 23813:912 JLINK_ReadReg(FPS21)  returns 0x00000000 (0000ms, 42958ms total)
T1998 23813:912 JLINK_ReadReg(FPS22)  returns 0x00000000 (0000ms, 42958ms total)
T1998 23813:912 JLINK_ReadReg(FPS23)  returns 0x00000000 (0000ms, 42958ms total)
T1998 23813:912 JLINK_ReadReg(FPS24)  returns 0x00000000 (0000ms, 42958ms total)
T1998 23813:912 JLINK_ReadReg(FPS25)  returns 0x00000000 (0000ms, 42958ms total)
T1998 23813:912 JLINK_ReadReg(FPS26)  returns 0x00000000 (0000ms, 42958ms total)
T1998 23813:912 JLINK_ReadReg(FPS27)  returns 0x00000000 (0000ms, 42958ms total)
T1998 23813:912 JLINK_ReadReg(FPS28)  returns 0x00000000 (0000ms, 42958ms total)
T1998 23813:912 JLINK_ReadReg(FPS29)  returns 0x00000000 (0000ms, 42958ms total)
T1998 23813:912 JLINK_ReadReg(FPS30)  returns 0x00000000 (0000ms, 42958ms total)
T1998 23813:912 JLINK_ReadReg(FPS31)  returns 0x00000000 (0000ms, 42958ms total)
T1998 23813:913 JLINK_ReadMemHW(0x004002AC, 0x0004 Bytes, ...) -- CPU_ReadMem(4 bytes @ 0x004002AC) - Data: 03 B0 5D F8  returns 0x00 (0001ms, 42959ms total)
T1998 23813:916 JLINK_ReadMem (0x20003900, 0x0040 Bytes, ...) -- CPU_ReadMem(64 bytes @ 0x20003900) -- Updating C cache (64 bytes @ 0x20003900) -- Read from C cache (64 bytes @ 0x20003900) - Data: 00 04 00 00 00 00 00 00 02 00 00 00 E9 11 40 00 ...  returns 0x00 (0001ms, 42960ms total)
T1998 23813:917 JLINK_ReadMem (0x20003944, 0x0004 Bytes, ...) -- CPU_ReadMem(64 bytes @ 0x20003940) -- Updating C cache (64 bytes @ 0x20003940) -- Read from C cache (4 bytes @ 0x20003944) - Data: 00 00 00 01  returns 0x00 (0001ms, 42961ms total)
T1998 23813:919 JLINK_ReadMem (0x20003940, 0x0040 Bytes, ...) -- Read from C cache (64 bytes @ 0x20003940) - Data: CC 03 40 00 00 00 00 01 00 0E 27 07 4C 3A 00 20 ...  returns 0x00 (0000ms, 42961ms total)
T1998 23813:920 JLINK_ReadMemHW(0x004003CC, 0x0004 Bytes, ...) -- CPU_ReadMem(4 bytes @ 0x004003CC) - Data: FE E7 00 BF  returns 0x00 (0001ms, 42962ms total)
T2F4C 23814:040 JLINK_IsHalted()  returns TRUE (0000ms, 42962ms total)
T2F4C 23814:242 JLINK_IsHalted()  returns TRUE (0000ms, 42962ms total)
T1998 23814:266 JLINK_ReadMem (0x200008A2, 0x0002 Bytes, ...) -- CPU_ReadMem(64 bytes @ 0x20000880) -- Updating C cache (64 bytes @ 0x20000880) -- Read from C cache (2 bytes @ 0x200008A2) - Data: 00 00  returns 0x00 (0001ms, 42963ms total)
T2F4C 23814:445 JLINK_IsHalted()  returns TRUE (0001ms, 42964ms total)
T1998 23814:453 JLINK_ReadMem (0x200008A0, 0x0002 Bytes, ...) -- Read from C cache (2 bytes @ 0x200008A0) - Data: 00 00  returns 0x00 (0000ms, 42963ms total)
T2F4C 23814:649 JLINK_IsHalted()  returns TRUE (0000ms, 42963ms total)
T1998 23814:749 JLINK_ReadMem (0x200008A2, 0x0002 Bytes, ...) -- Read from C cache (2 bytes @ 0x200008A2) - Data: 00 00  returns 0x00 (0000ms, 42963ms total)
T1998 23814:810 JLINK_ReadMem (0x200008A0, 0x0002 Bytes, ...) -- Read from C cache (2 bytes @ 0x200008A0) - Data: 00 00  returns 0x00 (0000ms, 42963ms total)
T2F4C 23814:851 JLINK_IsHalted()  returns TRUE (0000ms, 42963ms total)
T2F4C 23815:052 JLINK_IsHalted()  returns TRUE (0000ms, 42963ms total)
T2F4C 23815:253 JLINK_IsHalted()  returns TRUE (0000ms, 42963ms total)
T2F4C 23815:454 JLINK_IsHalted()  returns TRUE (0000ms, 42963ms total)
T2F4C 23815:654 JLINK_IsHalted()  returns TRUE (0000ms, 42963ms total)
T2F4C 23815:856 JLINK_IsHalted()  returns TRUE (0000ms, 42963ms total)
T2F4C 23816:057 JLINK_IsHalted()  returns TRUE (0000ms, 42963ms total)
T2F4C 23816:257 JLINK_IsHalted()  returns TRUE (0000ms, 42963ms total)
T2F4C 23816:457 JLINK_IsHalted()  returns TRUE (0000ms, 42963ms total)
T2F4C 23816:657 JLINK_IsHalted()  returns TRUE (0000ms, 42963ms total)
T2F4C 23816:859 JLINK_IsHalted()  returns TRUE (0000ms, 42963ms total)
T2F4C 23817:060 JLINK_IsHalted()  returns TRUE (0000ms, 42963ms total)
T2F4C 23817:262 JLINK_IsHalted()  returns TRUE (0000ms, 42963ms total)
T2F4C 23817:465 JLINK_IsHalted()  returns TRUE (0000ms, 42963ms total)
T2F4C 23817:666 JLINK_IsHalted()  returns TRUE (0000ms, 42963ms total)
T1998 23817:763 JLINK_ReadReg(R15 (PC))  returns 0x00400284 (0000ms, 42963ms total)
T1998 23817:764 JLINK_GetBPInfo(BPHandle = 1)  returns 0x00 (0000ms, 42963ms total)
T1998 23817:764 JLINK_ClrBPEx(BPHandle = 0x00000001)  returns 0x00 (0000ms, 42963ms total)
T1998 23817:764 JLINK_Step() -- Read from flash cache (2 bytes @ 0x00400284) -- CPU_ReadMem(4 bytes @ 0xE000ED18) -- CPU_WriteMem(4 bytes @ 0xE000ED18) -- CPU_ReadMem(4 bytes @ 0xE000ED18) -- CPU_WriteMem(4 bytes @ 0xE000ED18) -- CPU_ReadMem(4 bytes @ 0xE0001004) -- Simulated  returns 0x00 (0002ms, 42965ms total)
T1998 23817:766 JLINK_SetBPEx(Addr = 0x00400284, Type = 0xFFFFFFF2)  returns 0x00000003 (0000ms, 42965ms total)
T1998 23817:766 JLINK_GetBPInfo(BPHandle = 3)  returns 0x00 (0000ms, 42965ms total)
T1998 23817:767 JLINK_Go() -- CPU_ReadMem(4 bytes @ 0xE0001000) -- CPU_WriteMem(4 bytes @ 0xE000ED30) -- CPU_WriteMem(4 bytes @ 0xE0001004) (0002ms, 42967ms total)
T2F4C 23817:769 JLINK_IsHalted()  returns TRUE (0003ms, 42970ms total)
T2F4C 23817:772 JLINK_GetMOEs(...) -- CPU_ReadMem(4 bytes @ 0xE000ED30)  returns 0x01 (0000ms, 42967ms total)
T2F4C 23817:772 JLINK_ReadReg(R15 (PC))  returns 0x00400284 (0000ms, 42967ms total)
T1998 23817:779 JLINK_ReadReg(R15 (PC))  returns 0x00400284 (0000ms, 42967ms total)
T1998 23817:779 JLINK_ReadReg(R13 (SP))  returns 0x20003918 (0000ms, 42967ms total)
T1998 23817:780 JLINK_ReadMemHW(0x00400284, 0x0004 Bytes, ...) -- CPU_ReadMem(4 bytes @ 0x00400284) - Data: 9B B2 03 4A  returns 0x00 (0000ms, 42967ms total)
T1998 23817:829 JLINK_ReadReg(R0)  returns 0x00070310 (0000ms, 42967ms total)
T1998 23817:829 JLINK_ReadReg(R1)  returns 0x200008A2 (0000ms, 42967ms total)
T1998 23817:829 JLINK_ReadReg(R2)  returns 0x00000003 (0000ms, 42967ms total)
T1998 23817:829 JLINK_ReadReg(R3)  returns 0x00000DEC (0000ms, 42967ms total)
T1998 23817:829 JLINK_ReadReg(R4)  returns 0x400B0000 (0000ms, 42967ms total)
T1998 23817:829 JLINK_ReadReg(R5)  returns 0x00400709 (0000ms, 42967ms total)
T1998 23817:829 JLINK_ReadReg(R6)  returns 0x40090000 (0000ms, 42967ms total)
T1998 23817:829 JLINK_ReadReg(R7)  returns 0x00000800 (0000ms, 42967ms total)
T1998 23817:829 JLINK_ReadReg(R8)  returns 0x20000008 (0000ms, 42967ms total)
T1998 23817:829 JLINK_ReadReg(R9)  returns 0x00000000 (0000ms, 42967ms total)
T1998 23817:829 JLINK_ReadReg(R10)  returns 0x00000000 (0000ms, 42967ms total)
T1998 23817:829 JLINK_ReadReg(R11)  returns 0x00000000 (0000ms, 42967ms total)
T1998 23817:829 JLINK_ReadReg(R12)  returns 0x00000000 (0000ms, 42967ms total)
T1998 23817:829 JLINK_ReadReg(R13 (SP))  returns 0x20003918 (0000ms, 42967ms total)
T1998 23817:829 JLINK_ReadReg(R14)  returns 0x004002AD (0000ms, 42967ms total)
T1998 23817:829 JLINK_ReadReg(R15 (PC))  returns 0x00400284 (0000ms, 42967ms total)
T1998 23817:829 JLINK_ReadReg(XPSR)  returns 0x01000025 (0000ms, 42967ms total)
T1998 23817:829 JLINK_ReadReg(MSP)  returns 0x20003918 (0000ms, 42967ms total)
T1998 23817:830 JLINK_ReadReg(PSP)  returns 0x00000000 (0000ms, 42967ms total)
T1998 23817:830 JLINK_ReadReg(PRIMASK)  returns 0x00000000 (0000ms, 42967ms total)
T1998 23817:830 JLINK_ReadReg(BASEPRI)  returns 0x00000000 (0000ms, 42967ms total)
T1998 23817:830 JLINK_ReadReg(FAULTMASK)  returns 0x00000000 (0000ms, 42967ms total)
T1998 23817:830 JLINK_ReadReg(CONTROL)  returns 0x00000000 (0000ms, 42967ms total)
T1998 23817:830 JLINK_ReadReg(FPSCR)  returns 0x00000000 (0004ms, 42971ms total)
T1998 23817:834 JLINK_ReadReg(FPS0)  returns 0x00000000 (0000ms, 42971ms total)
T1998 23817:834 JLINK_ReadReg(FPS1)  returns 0x00000000 (0000ms, 42971ms total)
T1998 23817:834 JLINK_ReadReg(FPS2)  returns 0x00000000 (0000ms, 42971ms total)
T1998 23817:834 JLINK_ReadReg(FPS3)  returns 0x00000000 (0000ms, 42971ms total)
T1998 23817:834 JLINK_ReadReg(FPS4)  returns 0x00000000 (0000ms, 42971ms total)
